Sample in Buffer,Sample in Window,TRIGGER,u3_adc_analysis/adc2_a1_1[15:0],u3_adc_analysis/adc2_a2_1[15:0],u3_adc_analysis/adc2_a3_1[15:0],u3_adc_analysis/adc2_a4_1[15:0],u3_adc_analysis/adc2_a1_2[15:0],u3_adc_analysis/adc2_a2_2[15:0],u3_adc_analysis/adc2_a3_2[15:0],u3_adc_analysis/adc2_a4_2[15:0],u3_adc_analysis/adc2_b1_1[15:0],u3_adc_analysis/adc2_b2_1[15:0],u3_adc_analysis/adc2_b3_1[15:0],u3_adc_analysis/adc2_b4_1[15:0],u3_adc_analysis/adc2_b1_2[15:0],u3_adc_analysis/adc2_b2_2[15:0],u3_adc_analysis/adc2_b3_2[15:0],u3_adc_analysis/adc2_b4_2[15:0],u3_adc_analysis/time_8s_2
0,0,0,-20802,-21190,-21786,-22136,-22528,-22950,-23372,-23690,2,4,16,32,-14,-12,-18,16,0
1,1,0,-23932,-24240,-24560,-24780,-24968,-25158,-25394,-25500,2,20,-18,0,-30,4,-18,-18,0
2,2,0,-25586,-25708,-25820,-25838,-25810,-25868,-25836,-25790,-14,4,-18,-18,2,-12,0,-18,0
3,3,0,-25666,-25580,-25506,-25352,-25074,-24918,-24710,-24470,18,-28,0,-18,2,28,0,0,0
4,4,0,-24068,-23850,-23564,-23252,-22782,-22346,-22056,-21534,34,-12,0,-34,-14,4,-18,-18,0
5,5,0,-21098,-20486,-20158,-19588,-19014,-18424,-17836,-17254,34,-28,0,0,34,4,-18,0,0
6,6,0,-16616,-15988,-15342,-14690,-13984,-13240,-12562,-11896,2,-12,32,0,2,-12,-34,0,0
7,7,0,-11110,-10348,-9566,-8890,-8042,-7266,-6468,-5698,2,4,0,32,2,4,-18,16,0
8,8,0,-4874,-4038,-3268,-2454,-1642,-804,62,778,-46,-28,0,-18,18,-12,16,-66,0
9,9,0,1642,2410,3298,4024,4842,5656,6500,7240,-14,-12,0,-18,-14,44,0,-18,0
10,10,0,8008,8758,9522,10222,10966,11718,12466,13104,-46,-28,0,32,2,20,16,-18,0
11,11,0,13770,14464,15168,15740,16342,16986,17568,18140,2,20,-34,0,2,-12,0,16,0
12,12,0,18628,19196,19724,20192,20676,21134,21592,21944,2,4,-34,-18,18,4,16,16,0
13,13,0,22314,22780,23074,23412,23678,24026,24276,24528,-46,-12,0,0,18,-12,-34,-34,0
14,14,0,24662,24896,25064,25240,25316,25482,25542,25602,18,44,-34,0,-14,-12,0,-18,0
15,15,0,25562,25582,25542,25520,25396,25354,25252,25110,2,-12,-18,-18,-14,20,16,0,0
16,16,0,24900,24688,24500,24276,23944,23696,23408,23092,-14,4,0,-18,-14,-12,-18,-34,0
17,17,0,22600,22328,21896,21490,21034,20544,20082,19598,2,-28,0,0,-46,-12,-34,-18,0
18,18,0,18986,18482,17954,17370,16724,16094,15562,14860,-30,4,0,-18,-14,4,16,-34,0
19,19,0,14122,13472,12788,12086,11306,10542,9826,9082,-14,-44,0,-66,-46,-44,-18,0,0
20,20,0,8310,7504,6800,5980,5130,4334,3554,2718,2,4,0,-34,-30,-28,-18,0,0
21,21,0,1866,1066,270,-538,-1370,-2252,-3014,-3856,-30,44,-34,0,18,-12,0,16,0
22,22,0,-4610,-5476,-6274,-7034,-7780,-8590,-9356,-10086,-14,-12,16,-18,-30,4,0,0,0
23,23,0,-10854,-11588,-12306,-13026,-13738,-14422,-15100,-15740,2,4,0,0,2,-44,-18,-18,0
24,24,0,-16298,-16938,-17548,-18140,-18758,-19224,-19900,-20288,2,4,0,0,2,4,0,16,0
25,25,0,-20818,-21206,-21786,-22136,-22496,-23014,-23356,-23658,-30,-12,0,16,18,-12,-34,16,0
26,26,0,-23932,-24256,-24544,-24780,-24952,-25142,-25378,-25548,2,20,0,0,18,-28,16,0,0
27,27,0,-25554,-25708,-25804,-25806,-25826,-25852,-25820,-25790,2,-28,16,0,2,4,0,-18,0
28,28,0,-25650,-25564,-25458,-25336,-25090,-24902,-24760,-24502,-14,4,0,-34,-14,20,0,-18,0
29,29,0,-24100,-23882,-23564,-23268,-22750,-22362,-22040,-21550,2,4,-18,-34,-30,-44,16,0,0
30,30,0,-21114,-20486,-20126,-19572,-18982,-18408,-17820,-17254,-30,-28,-34,32,2,20,-34,-18,0
31,31,0,-16600,-15972,-15358,-14722,-14000,-13256,-12530,-11896,2,4,16,0,2,4,-34,0,0
32,32,0,-11126,-10332,-9566,-8842,-8042,-7282,-6500,-5714,2,28,16,-18,18,-28,0,0,0
33,33,0,-4874,-4054,-3300,-2502,-1626,-772,46,802,2,20,-34,-18,-30,44,-18,-34,0
34,34,0,1626,2458,3282,4024,4842,5672,6468,7208,-14,-28,-18,0,-30,-12,0,16,0
35,35,0,7960,8742,9522,10238,10970,11686,12434,13104,-14,-12,0,0,2,20,-18,16,0
36,36,0,13738,14432,15168,15740,16342,16970,17568,18098,-14,44,16,16,2,-12,-18,0,0
37,37,0,18660,19164,19744,20192,20676,21134,21592,21942,-14,4,-18,-34,-14,-44,16,0,0
38,38,0,22362,22748,23134,23428,23662,23968,24244,24544,-14,-12,32,-18,2,4,0,16,0
39,39,0,24678,24912,25064,25240,25316,25434,25526,25568,-30,20,16,0,2,-12,-18,0,0
40,40,0,25562,25566,25574,25488,25412,25354,25252,25094,-14,4,48,16,2,4,16,0,0
41,41,0,24884,24672,24484,24260,23992,23696,23408,23092,18,-12,0,-34,2,4,-18,32,0
42,42,0,22664,22296,21912,21474,21002,20560,20082,19582,2,44,0,-18,2,-12,16,16,0
43,43,0,19034,18450,17906,17354,16740,16110,15498,14876,-30,60,-18,16,-14,4,-34,0,0
44,44,0,14106,13456,12772,12086,11306,10526,9826,9050,18,-12,16,0,18,44,-34,0,0
45,45,0,8294,7504,6784,5980,5162,4350,3474,2726,-30,-12,0,-18,-14,44,-18,-18,0
46,46,0,1912,1066,206,-538,-1386,-2220,-3046,-3856,-14,4,-18,0,-14,-12,16,-18,0
47,47,0,-4626,-5476,-6290,-7034,-7780,-8606,-9372,-10086,34,-12,0,0,2,-12,-18,-34,0
48,48,0,-10822,-11556,-12338,-13010,-13722,-14422,-15132,-15740,-30,-12,16,0,18,-28,32,16,0
49,49,0,-16314,-16938,-17612,-18156,-18758,-19256,-19916,-20304,-14,-28,-34,16,-14,-28,0,16,0
50,50,0,-20786,-21238,-21786,-22152,-22528,-22966,-23372,-23674,2,-28,32,-18,-30,4,-18,-18,0
51,51,0,-23900,-24256,-24544,-24764,-24920,-25190,-25378,-25548,34,4,0,-18,-46,4,0,-34,0
52,52,0,-25570,-25708,-25820,-25894,-25842,-25788,-25868,-25790,2,-12,-34,0,-30,-28,-34,0,0
53,53,0,-25650,-25596,-25506,-25352,-25080,-24902,-24792,-24486,-14,-12,-18,-18,18,20,16,-18,0
54,54,0,-24132,-23882,-23596,-23268,-22798,-22346,-22072,-21550,-30,28,-18,16,-14,4,-34,16,0
55,55,0,-21114,-20536,-20174,-19620,-18982,-18424,-17836,-17254,2,4,0,0,-14,4,-34,16,0
56,56,0,-16632,-16004,-15374,-14722,-13984,-13304,-12562,-11896,2,-12,-18,16,-14,44,0,0,0
57,57,0,-11110,-10332,-9614,-8858,-8058,-7314,-6500,-5730,-14,-28,0,-18,2,20,16,16,0
58,58,0,-4874,-4054,-3284,-2486,-1642,-816,30,762,2,44,32,-18,2,4,-34,-18,0
59,59,0,1610,2426,3298,4072,4842,5656,6452,7256,18,-12,0,32,18,-12,-18,16,0
60,60,0,8024,8742,9570,10306,10998,11734,12450,13120,2,4,16,16,18,4,-18,16,0
61,61,0,13770,14480,15152,15804,16358,16938,17584,18156,2,4,0,0,-46,-12,16,16,0
62,62,0,18644,19212,19740,20224,20676,21166,21608,22006,18,4,16,-18,-14,4,-18,0,0
63,63,0,22314,22764,23090,23428,23678,24026,24292,24560,2,4,-18,16,18,4,16,-34,0
64,64,0,24694,24896,25080,25240,25316,25450,25526,25586,-14,4,-34,-34,-46,4,0,-18,0
65,65,0,25562,25566,25566,25552,25396,25354,25236,25110,-14,4,-34,0,-14,4,0,0,0
66,66,0,24900,24688,24500,24292,23928,23696,23424,23108,-14,-12,-34,32,-14,4,-18,16,0
67,67,0,22648,22344,21944,21522,21002,20560,20082,19582,2,-12,32,-18,-30,4,16,-18,0
68,68,0,19034,18482,17938,17370,16740,16078,15482,14860,2,4,0,0,34,-12,0,-18,0
69,69,0,14106,13440,12772,12102,11290,10494,9866,9114,-14,20,-18,0,2,-12,0,-18,0
70,70,0,8310,7456,6708,5948,5114,4334,3522,2718,-30,4,-18,-18,-30,20,0,0,0
71,71,0,1866,1066,270,-538,-1370,-2252,-3030,-3840,2,-12,-18,0,18,-28,16,0,0
72,72,0,-4642,-5476,-6258,-7034,-7740,-8606,-9372,-10086,-14,4,0,-18,18,4,-34,-18,0
73,73,0,-10822,-11604,-12322,-13026,-13706,-14438,-15132,-15756,-30,-12,0,0,2,4,-18,-34,0
74,74,0,-16282,-16986,-17596,-18124,-18726,-19256,-19916,-20272,-14,-12,-18,16,-14,4,-34,0,0
75,75,0,-20802,-21222,-21770,-22104,-22496,-22966,-23372,-23658,2,4,-18,16,2,-12,0,-18,0
76,76,0,-23884,-24256,-24560,-24796,-24936,-25174,-25378,-25516,2,-12,-18,-18,-14,4,0,-18,0
77,77,0,-25554,-25724,-25804,-25854,-25810,-25852,-25836,-25774,-46,-28,0,16,-46,-12,-18,-18,0
78,78,0,-25602,-25580,-25458,-25288,-25074,-24902,-24710,-24470,-14,-12,0,16,2,4,16,0,0
79,79,0,-24076,-23898,-23596,-23236,-22766,-22330,-22056,-21534,-30,4,-18,0,-46,-44,0,16,0
80,80,0,-21034,-20552,-20142,-19572,-19014,-18424,-17772,-17254,-30,-12,-18,-18,-14,-12,16,0,0
81,81,0,-16584,-16020,-15342,-14672,-13968,-13288,-12610,-11832,-14,-12,0,16,-30,4,0,-18,0
82,82,0,-11094,-10332,-9598,-8826,-8026,-7298,-6452,-5682,-30,20,16,-18,-30,-12,0,16,0
83,83,0,-4890,-4054,-3268,-2422,-1626,-772,46,818,-30,4,0,0,-46,-12,-34,-18,0
84,84,0,1610,2458,3298,4072,4826,5688,6468,7240,-14,-12,0,-18,-14,-12,16,0,0
85,85,0,7960,8726,9490,10254,10970,11686,12450,13120,-30,44,-34,16,18,-12,16,-34,0
86,86,0,13770,14480,15168,15788,16342,16954,17600,18156,-14,20,0,-34,-30,-12,16,-18,0
87,87,0,18628,19196,19708,20224,20660,21166,21608,22054,-46,-28,0,-18,2,28,-34,16,0
88,88,0,22330,22748,23090,23484,23662,24026,24260,24560,18,44,-34,0,2,4,16,-34,0
89,89,0,24678,24896,25048,25256,25284,25482,25526,25602,2,-12,-50,0,-30,4,16,-18,0
90,90,0,25546,25598,25598,25586,25412,25322,25270,25110,-30,4,-34,32,2,-12,-18,-18,0
91,91,0,24884,24688,24484,24292,23960,23728,23392,23108,-14,4,-18,16,-30,-28,-66,0,0
92,92,0,22648,22312,21928,21474,21034,20544,20098,19614,-14,-12,-18,16,-30,4,-34,16,0
93,93,0,19034,18466,17970,17402,16740,16126,15514,14892,18,4,0,-18,-30,4,-18,0,0
94,94,0,14090,13488,12772,12118,11290,10542,9826,9098,2,20,-34,16,2,-12,16,32,0
95,95,0,8326,7520,6752,5980,5130,4318,3522,2734,2,4,0,0,-14,-12,0,16,0
96,96,0,1944,1066,222,-506,-1386,-2188,-3014,-3840,2,-28,32,-18,-14,4,0,16,0
97,97,0,-4578,-5458,-6274,-7018,-7780,-8574,-9372,-10118,2,4,0,0,-46,44,-34,-34,0
98,98,0,-10822,-11588,-12354,-13010,-13722,-14422,-15084,-15740,-30,4,0,32,-14,44,-34,-18,0
99,99,0,-16314,-16938,-17580,-18172,-18742,-19240,-19916,-20304,-30,20,16,16,18,4,32,0,0
100,100,0,-20802,-21206,-21770,-22136,-22544,-22966,-23356,-23706,-30,-12,0,32,-30,-12,0,-18,0
101,101,0,-23932,-24240,-24592,-24780,-24936,-25142,-25394,-25580,2,-12,32,-18,2,-28,16,0,0
102,102,0,-25586,-25708,-25820,-25894,-25794,-25836,-25852,-25758,-30,-12,32,32,2,-12,32,0,0
103,103,0,-25618,-25580,-25506,-25304,-25074,-24902,-24710,-24470,-30,4,-18,-18,-14,4,16,-18,0
104,104,0,-24084,-23866,-23564,-23236,-22750,-22330,-22056,-21550,-14,4,0,0,-14,4,-34,0,0
105,105,0,-21034,-20502,-20174,-19556,-18998,-18424,-17820,-17254,-14,-12,-18,-18,2,4,0,0,0
106,106,0,-16616,-15956,-15374,-14690,-13930,-13272,-12594,-11864,2,4,-18,16,2,4,-18,0,0
107,107,0,-11126,-10368,-9598,-8842,-8042,-7298,-6500,-5714,2,4,-34,-18,34,-12,0,0,0
108,108,0,-4874,-4054,-3284,-2438,-1610,-848,14,802,-14,-12,32,-18,2,-12,32,32,0
109,109,0,1658,2442,3282,4072,4858,5656,6484,7224,18,-12,-34,16,-14,4,-34,-18,0
110,110,0,7976,8758,9522,10222,10950,11718,12450,13088,-14,-12,0,-18,-30,-28,0,0,0
111,111,0,13770,14496,15184,15740,16326,16986,17600,18124,18,-12,-34,-18,18,-12,-34,16,0
112,112,0,18628,19212,19756,20192,20660,21166,21608,21944,-30,44,0,-18,-14,-12,0,32,0
113,113,0,22314,22748,23150,23452,23662,24042,24276,24528,-46,4,-18,-18,-30,4,16,0,0
114,114,0,24662,24928,25048,25224,25300,25418,25526,25586,-30,-28,0,0,2,-12,0,0,0
115,115,0,25530,25530,25558,25520,25396,25338,25220,25094,-30,-12,-18,-18,-30,20,-18,0,0
116,116,0,24900,24688,24468,24276,23976,23680,23408,23092,-14,-12,0,16,-14,-12,16,0,0
117,117,0,22648,22312,21896,21490,21018,20544,20082,19598,2,4,-18,16,2,-12,0,-18,0
118,118,0,19018,18450,17970,17370,16740,16094,15498,14860,18,4,16,0,-30,-12,0,-18,0
119,119,0,14122,13472,12756,12086,11258,10510,9826,9082,-14,-12,32,16,2,4,-34,0,0
120,120,0,8278,7488,6708,5964,5130,4334,3522,2718,2,-28,16,-18,18,-44,16,0,0
121,121,0,1850,1066,254,-506,-1418,-2236,-3014,-3840,18,4,0,16,-30,20,-34,32,0
122,122,0,-4658,-5476,-6274,-7018,-7818,-8590,-9356,-10102,-30,4,32,0,2,20,-18,0,0
123,123,0,-10822,-11588,-12322,-13026,-13706,-14406,-15116,-15740,2,-28,-66,0,2,4,0,0,0
124,124,0,-16330,-16970,-17596,-18172,-18742,-19224,-19900,-20304,-14,-12,16,0,-30,-28,0,0,0
125,125,0,-20786,-21222,-21786,-22168,-22544,-22950,-23340,-23658,18,4,0,32,-14,4,16,0,0
126,126,0,-23932,-24256,-24528,-24796,-24968,-25158,-25378,-25532,-14,4,-50,32,2,-12,32,16,0
127,127,0,-25586,-25724,-25804,-25838,-25810,-25836,-25820,-25774,-14,4,-18,16,-14,-12,-18,32,0
128,128,0,-25650,-25580,-25442,-25320,-25058,-24902,-24726,-24470,-46,20,-18,16,-30,-28,16,0,0
129,129,0,-24132,-23850,-23564,-23268,-22814,-22346,-22056,-21550,-46,-12,16,32,2,-28,0,16,0
130,130,0,-21114,-20520,-20158,-19556,-18998,-18392,-17820,-17254,-14,-12,0,32,2,-28,0,-18,0
131,131,0,-16600,-15972,-15358,-14690,-13968,-13272,-12578,-11896,-30,-12,0,0,-14,4,16,16,0
132,132,0,-11142,-10316,-9582,-8858,-8042,-7266,-6484,-5714,2,4,-18,16,-46,4,0,16,0
133,133,0,-4858,-4038,-3252,-2470,-1610,-848,46,802,-14,-28,-18,-34,-14,-28,-34,16,0
134,134,0,1610,2458,3266,4056,4826,5688,6468,7208,-30,4,-34,-18,18,4,0,-18,0
135,135,0,7944,8726,9522,10222,10970,11686,12450,13072,18,4,-34,-18,2,20,16,16,0
136,136,0,13770,14480,15152,15756,16326,17002,17616,18098,2,-12,0,0,-46,4,-18,16,0
137,137,0,18644,19212,19740,20192,20628,21134,21558,21960,18,-12,-18,32,-30,44,0,48,0
138,138,0,22362,22764,23090,23484,23630,23994,24292,24528,2,-12,0,32,2,4,0,-18,0
139,139,0,24678,24912,25080,25192,25268,25434,25510,25552,2,-12,32,16,18,20,16,-18,0
140,140,0,25530,25598,25542,25488,25396,25354,25236,25078,-30,4,0,-34,18,20,-34,16,0
141,141,0,24868,24688,24484,24260,23944,23696,23376,23092,-46,4,-34,0,-46,-12,0,16,0
142,142,0,22632,22312,21928,21442,21002,20544,20066,19614,2,-12,0,-18,-14,4,0,-18,0
143,143,0,18986,18466,17938,17386,16740,16062,15498,14860,2,-12,0,0,-30,-12,32,0,0
144,144,0,14090,13472,12740,12070,11290,10526,9810,9082,18,20,16,0,2,20,16,-18,0
145,145,0,8294,7488,6752,5932,5098,4302,3506,2686,2,4,0,0,-14,4,0,0,0
146,146,0,1882,1034,270,-538,-1386,-2252,-3014,-3840,2,-44,-50,-34,2,4,-18,16,0
147,147,0,-4658,-5476,-6258,-7034,-7764,-8606,-9356,-10118,2,-44,16,0,-14,4,0,16,0
148,148,0,-10822,-11604,-12284,-13010,-13738,-14422,-15100,-15740,2,-28,16,16,2,-12,32,-34,0
149,149,0,-16330,-16954,-17612,-18156,-18758,-19240,-19932,-20304,18,-12,16,-18,-14,20,16,16,0
150,150,0,-20818,-21206,-21786,-22120,-22544,-22966,-23356,-23674,2,-28,0,0,2,4,32,-34,0
151,151,0,-23916,-24272,-24560,-24796,-24936,-25126,-25378,-25548,2,-12,16,-18,34,-12,0,0,0
152,152,0,-25554,-25708,-25786,-25838,-25826,-25820,-25836,-25790,-14,-12,0,0,2,-12,16,0,0
153,153,0,-25666,-25580,-25490,-25336,-25090,-24918,-24760,-24470,-14,20,-18,16,18,4,0,-18,0
154,154,0,-24116,-23850,-23564,-23268,-22782,-22330,-22072,-21534,18,44,0,-18,34,4,-18,0,0
155,155,0,-21114,-20536,-20126,-19572,-19014,-18408,-17820,-17286,2,4,0,0,-46,4,-34,0,0
156,156,0,-16648,-15972,-15326,-14672,-13984,-13240,-12562,-11864,-30,-28,16,0,2,-28,0,0,0
157,157,0,-11126,-10332,-9534,-8874,-8026,-7282,-6500,-5714,2,-12,0,-34,-14,-28,-34,-34,0
158,158,0,-4906,-4054,-3284,-2470,-1642,-756,30,834,-46,-28,0,0,-46,-28,0,16,0
159,159,0,1626,2458,3298,4040,4858,5688,6468,7256,2,4,0,16,-30,4,-18,0,0
160,160,0,7992,8742,9554,10290,10970,11686,12466,13136,18,4,0,32,2,4,0,32,0
161,161,0,13786,14464,15152,15772,16374,16954,17600,18156,2,20,0,16,-30,-12,16,0,0
162,162,0,18644,19196,19740,20240,20644,21166,21608,22022,2,44,0,-34,-46,-12,0,-50,0
163,163,0,22362,22780,23074,23484,23678,24010,24276,24576,34,4,-34,-18,18,4,-18,16,0
164,164,0,24694,24896,25080,25272,25284,25450,25494,25618,2,-12,32,0,2,4,0,16,0
165,165,0,25546,25582,25566,25552,25396,25354,25252,25110,-30,20,0,16,-14,4,0,-34,0
166,166,0,24916,24704,24500,24292,23976,23696,23440,23108,2,-28,0,-18,-14,-28,0,16,0
167,167,0,22664,22312,21912,21522,21050,20544,20114,19598,-46,4,0,0,18,4,0,16,0
168,168,0,19002,18498,17954,17354,16740,16094,15546,14876,2,-12,0,0,-14,-12,16,16,0
169,169,0,14106,13488,12804,12102,11290,10526,9850,9082,-14,4,0,0,2,-12,-18,0,0
170,170,0,8310,7520,6768,5948,5114,4350,3522,2702,2,4,-34,0,2,-28,32,0,0
171,171,0,1896,1034,254,-570,-1386,-2204,-3014,-3840,2,4,0,0,-30,-12,-34,0,0
172,172,0,-4594,-5442,-6274,-7066,-7802,-8574,-9340,-10118,-30,4,16,-34,-30,4,16,16,0
173,173,0,-10806,-11588,-12354,-13026,-13690,-14406,-15100,-15724,18,4,16,-18,-30,20,32,-34,0
174,174,0,-16330,-16954,-17564,-18204,-18726,-19256,-19932,-20304,-30,-12,0,-18,-46,44,16,0,0
175,175,0,-20786,-21222,-21754,-22152,-22464,-22998,-23356,-23690,18,-12,0,32,-30,-12,0,0,0
176,176,0,-23900,-24288,-24528,-24796,-24920,-25174,-25410,-25532,-46,4,-18,0,18,4,16,-34,0
177,177,0,-25554,-25676,-25786,-25806,-25762,-25820,-25804,-25806,2,-28,-34,-18,-14,4,0,0,0
178,178,0,-25634,-25580,-25490,-25336,-25058,-24918,-24710,-24454,2,4,16,0,2,-12,-34,16,0
179,179,0,-24060,-23850,-23564,-23236,-22766,-22346,-22040,-21518,-14,4,0,0,2,20,-34,0,0
180,180,0,-21050,-20502,-20174,-19572,-18998,-18424,-17868,-17270,2,20,0,-50,2,4,16,-18,0
181,181,0,-16616,-15988,-15374,-14690,-13968,-13272,-12594,-11864,-14,-44,0,-34,-14,-28,-18,-50,0
182,182,0,-11094,-10368,-9582,-8842,-8058,-7282,-6500,-5730,2,4,0,16,2,-12,-34,-34,0
183,183,0,-4842,-4038,-3290,-2454,-1626,-816,14,818,-14,4,-34,-18,2,4,-18,0,0
184,184,0,1642,2410,3282,4056,4874,5688,6452,7208,-14,4,0,-18,-30,20,-18,16,0
185,185,0,7992,8742,9538,10222,10950,11686,12434,13072,-14,-28,0,0,2,20,0,16,0
186,186,0,13770,14448,15168,15724,16342,16954,17552,18098,2,-12,0,16,-14,-12,16,0,0
187,187,0,18628,19212,19740,20208,20628,21150,21608,21944,2,-12,-18,32,18,4,0,0,0
188,188,0,22298,22748,23090,23396,23646,24010,24260,24496,-30,-28,-34,0,2,-12,0,-34,0
189,189,0,24662,24864,25048,25208,25268,25434,25526,25552,2,20,16,-18,2,4,32,0,0
190,190,0,25530,25582,25598,25504,25396,25302,25220,25094,2,44,32,0,2,-28,0,16,0
191,191,0,24900,24672,24484,24276,23960,23680,23392,23076,2,4,16,-34,-14,4,0,0,0
192,192,0,22664,22296,21928,21474,21002,20512,20082,19582,2,-12,0,16,-14,4,16,16,0
193,193,0,19002,18434,17938,17370,16740,16062,15482,14860,-14,20,16,16,18,4,-34,0,0
194,194,0,14106,13488,12772,12086,11306,10510,9810,9082,-30,44,16,-18,-14,4,0,-50,0
195,195,0,8278,7488,6752,5948,5114,4334,3506,2702,2,-28,-50,-34,-30,-44,32,-18,0
196,196,0,1912,1034,238,-570,-1450,-2188,-3030,-3840,-14,20,0,0,-46,4,-34,-18,0
197,197,0,-4626,-5492,-6290,-7002,-7818,-8606,-9356,-10102,2,-12,-18,48,18,4,0,16,0
198,198,0,-10854,-11588,-12300,-13026,-13690,-14406,-15100,-15724,-30,-12,-34,16,50,4,16,0,0
199,199,0,-16346,-16954,-17580,-18108,-18742,-19224,-19932,-20256,-14,4,0,16,-30,4,-18,-18,0
200,200,0,-20818,-21254,-21770,-22120,-22496,-22966,-23356,-23690,18,4,0,0,2,4,0,0,0
201,201,0,-23916,-24256,-24560,-24780,-24936,-25142,-25410,-25532,2,4,32,16,2,20,16,0,0
202,202,0,-25602,-25708,-25770,-25806,-25794,-25884,-25836,-25790,2,-12,0,-18,-14,4,-18,-18,0
203,203,0,-25682,-25596,-25506,-25304,-25058,-24918,-24726,-24454,-46,-44,0,-18,-30,4,16,0,0
204,204,0,-24100,-23850,-23564,-23236,-22766,-22346,-22056,-21534,-30,-12,16,0,2,4,0,-34,0
205,205,0,-21098,-20520,-20142,-19556,-18998,-18408,-17836,-17222,-30,20,0,16,2,-12,0,0,0
206,206,0,-16616,-15988,-15326,-14722,-13984,-13256,-12546,-11864,-46,4,0,16,18,4,16,-18,0
207,207,0,-11110,-10332,-9566,-8810,-8042,-7282,-6468,-5714,2,20,32,0,18,20,0,0,0
208,208,0,-4874,-4038,-3268,-2454,-1664,-820,46,802,-30,20,-34,0,-14,20,16,16,0
209,209,0,1642,2458,3298,4072,4858,5688,6484,7208,2,4,0,16,2,-12,0,16,0
210,210,0,7976,8758,9538,10254,10970,11686,12466,13104,2,-28,0,-34,-14,44,0,0,0
211,211,0,13786,14480,15152,15740,16342,16970,17568,18098,-14,-12,16,-34,2,4,32,0,0
212,212,0,18660,19212,19756,20192,20660,21150,21640,21944,2,20,0,0,-30,20,16,0,0
213,213,0,22314,22716,23058,23412,23662,23994,24308,24528,18,-28,-18,0,-30,20,16,0,0
214,214,0,24726,24864,25064,25224,25316,25418,25510,25552,18,4,16,16,-14,-12,0,32,0
215,215,0,25530,25546,25558,25552,25396,25318,25220,25062,2,-12,32,32,-46,-28,0,0,0
216,216,0,24884,24672,24500,24260,23944,23712,23408,23076,-14,-12,16,0,-14,4,-18,-18,0
217,217,0,22632,22296,21880,21458,21018,20528,20082,19614,-14,-28,16,0,-14,4,-34,0,0
218,218,0,19018,18482,17970,17386,16740,16078,15482,14860,-30,-12,0,16,18,4,0,-18,0
219,219,0,14122,13456,12772,12102,11290,10494,9810,9098,-30,4,-18,0,2,4,32,0,0
220,220,0,8310,7488,6692,5996,5130,4318,3490,2718,2,4,16,0,-30,4,0,0,0
221,221,0,1928,1066,254,-538,-1418,-2236,-3030,-3824,2,4,0,0,-14,-44,0,-18,0
222,222,0,-4626,-5458,-6258,-7018,-7802,-8590,-9388,-10118,-46,20,0,-18,-46,-12,-18,-34,0
223,223,0,-10806,-11572,-12354,-13026,-13722,-14390,-15116,-15724,2,4,0,0,-30,20,0,0,0
224,224,0,-16298,-16954,-17612,-18172,-18726,-19208,-19932,-20336,-30,-12,16,-18,-46,4,0,-18,0
