Sample in Buffer,Sample in Window,TRIGGER,int_dac_top/top_dac4_int/i_jesd204_1_support_block/gt0_txcharisk[3:0],int_dac_top/top_dac4_int/i_jesd204_1_support_block/gt0_txdata[31:0],int_dac_top/top_dac4_int/tx_tdata[255:0],int_dac_top/top_dac1_int/i_jesd204_1_support_block/gt0_txcharisk[3:0],int_dac_top/top_dac1_int/i_jesd204_1_support_block/gt0_txdata[31:0],int_dac_top/top_dac1_int/tx_tdata[255:0],int_dac_top/top_dac2_int/i_jesd204_1_support_block/gt0_txcharisk[3:0],int_dac_top/top_dac2_int/i_jesd204_1_support_block/gt0_txdata[31:0],int_dac_top/top_dac2_int/tx_tdata[255:0],int_dac_top/top_dac3_int/i_jesd204_1_support_block/gt0_txcharisk[3:0],int_dac_top/top_dac3_int/i_jesd204_1_support_block/gt0_txdata[31:0],int_dac_top/top_dac3_int/tx_tdata[255:0],int_dac_top/top_dac4_int/syncb_buf,int_dac_top/top_dac1_int/syncb_buf,int_dac_top/top_dac2_int/syncb_buf,int_dac_top/top_dac3_int/syncb_buf,int_dac_top/top_dac3_int/syncb_logic,int_dac_top/top_dac4_int/syncb_logic,int_dac_top/top_dac1_int/syncb_logic,int_dac_top/top_dac2_int/syncb_logic,sysref_logic,sysref_o,int_dac_top/top_dac1_int/tx_aresetn,int_dac_top/top_dac3_int/tx_aresetn,int_dac_top/top_dac2_int/tx_aresetn,int_dac_top/top_dac4_int/tx_aresetn
0,0,0,0,a43f84d0,5f204d06d82f51f2a33aacdfb13f30d0843e62c5393750c0872a7ac1ab19c1c8,0,d22ecef3,b9f84a2bb90c9c1a7b1f5307272f53f3373a90e0953fe1d0ba3ecec5bc376cc0,0,54c0af2f,60dffef9f6cff90d3fc5952048c002308dc1bc3aeec8b73fb2d5763e9ae61937,f,bcbcbcbc,873fa90a793d7500d8393ef6bc3447ec462ed1e2a1261bdafe1d5dd29714cacb,0,0,0,1,0,1,1,1,0,0,1,1,1,1
1,1,0,0,071a8ec8,7e3e58c52c374ec0742a7fc19419cec8340683d538f260e696dfc0f91fd0bb0d,0,ed3778c0,423a7be0983fd0d0b53ec3c5b0376ac0382b48c1851a4ac83a07bfd43af36fe5,0,3ee64c37,92c1c63afac8b93fc5d5713eb1e60c3717fa452a110e5b19ab20f5051330fbf1,f,bcbcbcbc,0ecf911942d6992289debf2aaae7cc316bf192378cfbed3bca05be3ee10ff43f,0,0,0,1,0,1,1,1,0,0,1,1,1,1
2,2,0,0,62d0590d,1b0696d520f277e680dfd9f90fd0d40d4ec575204bc0e92f84c1ad3adac8b33f,0,9df314e5,252b4dc16e1a56c82107d1d422f386e565e0d2f8bfd0d20cb9c5901f67c0382f,0,d02f5df2,30fa322a2a0e4319c120dc052330e2f1d03a4adfbc3fe5cf6b3e35c5ff3645c0,f,bcbcbcbc,721285ca6f0899c535fe2bc206f453c026ea1dc0d5e089c150d88fc4d0d01bc9,0,0,0,1,0,1,1,1,0,0,1,1,1,1
3,3,0,0,a8c8a93f,44c58b2049c0fa2f8ac1b73ae7c8b63fa9d5793e8ee61f37f2f9612aec0d7d19,0,72c0f42e,4fe0ebf8aed0ea0cafc5a61f64c0492f52c14c3a63c89b3fe4d4b03e9de5a337,0,32374fc0,da3a35dfbe3fd5cf663e2bc5f23643c01f2a98c12c1907c9c305d8d5caf1c8e6,f,bcbcbcbc,0d1200409e1b373f7924cf3c652cd8382e336d33a738b12cae3ccf24263ffc1b,0,0,0,1,0,1,1,1,0,0,1,1,1,1
4,4,0,0,8a0dd919,bbd5733ea5e612370bfa4e2a050e6619a02002060a3007f2c13a6bdfb83ffecf,0,42e5d537,57c1563a6fc89d3ff7d4ab3eb4e5973704f9132b030d571abc1f08075a2f09f3,0,2cf26ce6,0c2a9dc1151914c9aa05ebd5b1f1dfe61fdf49fac4cf420e21c5d62041c03430,f,bcbcbcbc,52cf4cca51c989d0b6c4fed7a0c179e023c0c3e949c09ff311c2cbfd6ec50708,0,0,0,1,0,1,1,1,0,0,1,1,1,1
5,5,0,0,af3f41d0,b620e9051b30eff1cb3a55dfbb3fedcf6e3e3ac5063747c03b2a8fc14f19f4c8,0,162f6cf3,1df9002b1c0d411ad21fef066b2ff1f2613a39e0a03f9dd0a63ea4c58b3761c0,0,4ac0f12f,09df62fab4cf5b0e17c5ec203fc04430a3c1e43a21c9c03ffed5603ef6e6e536,f,bcbcbcbc,793ff219f83f4710d23e3206113cf5fbc637d2f10e320ce80d2be2def22292d6,0,0,0,1,0,1,1,1,0,0,1,1,1,1
6,6,0,0,ab19c1c8,683e30c5f93644c0282a95c1381901c9d005ced5d6f1bde63fdf24faddcf1e0e,0,bc376cc0,6b3a23e0a33f8cd0a13e9ac57e375ec0ed2a5dc12a1a7cc8d60609d5d8f2cbe5,0,9ae61937,a8c1ee3a2ec9c23f11d65a3e0de7d8367bfaf929730efe1801219105553099f1,f,bcbcbcbc,60c6410a8ecb331413d2a11dc6d94d2674e2fd2de3eb8034d6f5ab390c005b3d,0,0,0,1,0,1,1,1,0,0,1,1,1,1
7,7,0,0,1fd0bb0d,b705e1d5bef1d4e62adf3dfacccf360e26c5cb2042c02b309ac1d53a0ec9bd3f,0,3af36fe5,db2a62c1131a88c8bd061cd5bff2e2e50de036f97bd0340d90c5e81f5cc07c2f,0,1330fbf1,94fae6298c0ee71817217805653081f1f73af4dec53fa3cf553e0ec5cc363cc0,f,bcbcbcbc,0921e2d4df17e4cd170e2ec8f403e7c3b6f929c1a2ef08c0f9e58ac0fadcacc2,0,0,0,1,0,1,1,1,0,0,1,1,1,1
8,8,0,0,dac8b33f,1cc5e12040c03c30a0c1df3a1bc9bf3ff4d5633eebe6ec3656fa152a4f0e2119,0,67c0382f,f8df4ff96bd04d0d86c5fe1f59c08d2f67c1753a95c8a63f2fd59c3ef9e57237,0,ff3645c0,013bdedec73f93cf4f3e04c5bf363ac0d329aec1d0183bc95f0524d668f125e7,f,bcbcbcbc,4c02f53d790cb93f5316db3f9b1f5a3e1428413b872fa336c1359f309b3a5c29,0,0,0,1,0,1,1,1,0,0,1,1,1,1
9,9,0,0,ec0d7d19,07d65d3e02e7df366ffa022a670e0a19f7209e054c30a5f1e93a14dfc13fbccf,0,9de5a337,6cc1803aa1c8a83f41d5963e10e6653768f9c82a650dfc191320a4069e2fa7f2,0,caf1c8e6,c029b4c1b91848c9460537d650f13ce7c9deadfa82cfa40efac42c2138c07630,f,bcbcbcbc,1edb5ac33fd364c785cce0cc1dc7acd32ac39bdbc6c078e400c009eedec011f8,0,0,0,1,0,1,1,1,0,0,1,1,1,1
10,10,0,0,b83ffecf,0c2185055d308df1f23affdec43fabcf583e12c5d2363ec0ef29a6c1f31828c9,0,5a2f09f3,81f9b52a7e0de51929208b06af2f8ef28a3ae2dfab3f5ad0913e7bc5583757c0,0,41c03430,b3dec6fa72cfbd0ef0c4422136c08630bac10b3b55c9c93f4ad6493e53e7b136,f,bcbcbcbc,7a3b9d277c3e171fe53fc415aa3fe30bcf3db4015e3a7af76e3577ed202feee3,0,0,1,1,0,1,1,0,0,0,1,1,1,1
11,11,0,0,4f19f4c8,523e09c5c5363bc0dc29abc1db1834c96c051ad674f119e7e9de88fa9bcf7f0e,0,8b3761c0,943accdfad3f49d08c3e71c54c3754c0a32a72c1ce19aec8720654d576f227e6,0,f6e6e536,c0c1143b62c9cb3f5dd6433e6ae7a436dffaad29d50ea11857212d05963037f1,f,bcbcbcbc,47c14efa1cc48c0479c8ac0e43ce6c1853d58c217addcf2984e6013135f0f236,0,0,0,1,0,1,1,1,0,0,1,1,1,1
12,12,0,0,ddcf1e0e,53052dd65cf130e7d4dea1fa8acf980effc4222139c06d30b1c1fc3a41c9c63f,0,d8f2cbe5,902a77c1b719bbc8590667d55df23ee6b6df9af938d0970d67c53f2051c0bf2f,0,553099f1,f8fa9a29ee0e8a186d211405a7301ff11e3b9edecd3f61cf3e3ee7c4973634c0,f,bcbcbcbc,932dede1d2254cd91a1daad1a31337cbab091ec673ff81c240f577c053eb0dc0,0,0,0,1,0,1,1,1,0,0,1,1,1,1
13,13,0,0,0ec9bd3f,f5c4372137c07e30b7c1063b4fc9c83f40d64c3e47e7b836bafac929b00ec418,0,5cc07c2f,a1dfb3f928d0af0d5dc554204fc0d02f7cc19e3ac7c8b03f79d5863e55e63f37,0,cc363cc0,283b89decf3f51cf383eddc48a3632c08729c5c173186fc9fb0470d606f181e7,f,bcbcbcbc,66f210388dfc453cca06ef3edb10fc3f7d1a653f71232f3d7d2b68396c322834,0,0,0,1,0,1,1,1,0,0,1,1,1,1
14,14,0,0,4f0e2119,53d6463e5fe7ab36d3fab629c90ead184d213a058e3043f1103bbedeca3f7acf,0,f9e57237,82c1a83ad4c8b23f8cd5813e6ce63237ccf97d2ac80da0196a204006e12f45f2,0,68f125e7,7429cbc15c187cc9e20483d6eef099e773de12fb41cf060fd3c4822130c0b730,f,bcbcbcbc,34e92ec0f5dfc3c188d7f0c424d0a1c9f9c9b6cf31c507d7ebc165df3bc099e8,0,0,0,1,0,1,1,1,0,0,1,1,1,1
15,15,0,0,c13fbccf,622121059f302bf1193ba9decc3f6acf403eecc49e3635c0a329bdc196185cc9,0,9e2fa7f2,e5f96a2ae00d891980202706f12f2cf2b23a8bdfb53f17d07c3e53c526374dc0,0,38c07630,5ede2bfb31cf1e0fcac498212ec0c730d1c1313b8ac9d13f96d6323eb0e77d36,f,bcbcbcbc,c733d2321d39f72bfe3cfb234e3f141bff3f7b110c3f6f077c3c33fd603809f3,0,0,0,1,0,1,1,1,0,0,1,1,1,1
16,16,0,0,f31828c9,3b3ee2c4913633c09029c2c17f1869c9080566d612f176e793deecfa59cfe10e,0,583757c0,bc3a75dfb73f06d0763e49c519374ac0572a87c17219e1c80e069fd514f283e6,0,53e7b136,d7c13b3b97c9d33fa9d62c3ec7e7703644fb6029370f4518ad21c904d830d5f0,f,bcbcbcbc,14c0b5ea63c09cf453c2cdfed8c50609d9ca041337d1851cc8d84b255ae11d2d,0,0,0,1,0,1,1,1,0,0,1,1,1,1
17,17,0,0,9bcf7f0e,ee0479d6faf08de77ede05fb49cffa0ed8c4772131c0af30c8c1233b76c9ce3f,0,76f227e6,452a8dc15b19eec8f505b2d5fbf19ae660dffef9f6cff90d3fc5952048c00230,0,963037f1,5dfb4d294f0f2d18c221b004e830bdf0443b48ded43f20cf263ec0c463362cc0,f,bcbcbcbc,4637d7f06c311de74d2a07de1922cfd50519acce4e0fcdc8320557c4f4fa69c1,0,0,0,1,0,1,1,1,0,0,1,1,1,1
18,18,0,0,41c9c63f,cfc48d212fc0bf30cec12d3b83c9d03f8cd6353ea4e784361efb7d29120f6718,0,51c0bf2f,4adf17fae5cf110e35c5ab2045c0133092c1c63afac8b93fc5d5713eb1e60c37,0,973634c0,4e3b33ded63f10cf203eb7c455362bc03a29ddc11618a4c99704bcd6a5f0dee7,f,bcbcbcbc,59e3af2ed8ec1235d5f6193a0d01a33d3f0b983f2715ed3f851e9f3e1a27b63b,0,0,0,1,0,1,1,1,0,0,1,1,1,1
19,19,0,0,b00ec418,a0d62f3ebbe7763637fb6a292b0f5018a221d504cf30e2f0363b68ded23f39cf,0,55e63f37,98c1d03a07c9bc3fd8d56b3ec8e6ff3630fa322a2a0e4319c120dc052330e2f1,0,06f181e7,2729e3c1ff17b1c97e04d0d68cf0f6e71ede76fb00cf680fadc4d82129c0f830,f,bcbcbcbc,b6f8fac0a9ee02c00ee5adc024dcf7c225d4d2c645cd23ccb2c7c8d290c396da,0,0,0,1,0,1,1,1,0,0,1,1,1,1
20,20,0,0,ca3f7acf,b821bc04e030c9f0403b53ded43f28cf293ec5c469362dc05729d4c1391890c9,0,e12f45f2,49fa1f2a420e2c19d620c3053430caf1da3a35dfbe3fd5cf663e2bc5f23643c0,0,30c0b730,08de8ffbf0ce800fa4c4ed2127c00831e9c1573bbfc9d83fe3d61a3e0de84836,f,bcbcbcbc,dc28de3a32301b364b36f52f013b9628343e2c20cf3fef16c83f1c0d1e3ef302,0,0,0,1,0,1,1,1,0,0,1,1,1,1
21,21,0,0,96185cc9,233ebcc45c362cc04429dac122189dc9a304b3d6b1f0d3e73ede50fb18cf430f,0,26374dc0,e43a1fdfc03fc4cf603e21c5e53641c00c2a9dc1151914c9aa05ebd5b1f1dfe6,0,b0e77d36,efc1613bccc9da3ff6d6143e24e83b36a8fb1329980fe71702226504183174f0,f,bcbcbcbc,dcc270dca0c061e503c001ef0ac111f9aec34d03ddc7750d7dcd441767d47a20,0,0,0,1,0,1,1,1,0,0,1,1,1,1
22,22,0,0,59cfe10e,8a04c6d698f0eae728de69fb08cf5b0fb2c4cd212ac0f030e0c1493babc9d53f,0,14f283e6,f929a3c1fe1821c99105fed599f1f6e609df62fab4cf5b0e17c5ec203fc04430,0,d830d5f0,c1fb0029b10fd01718224c0428315bf06a3bf3dddb3fe0ce0e3e9bc42d3625c0,f,bcbcbcbc,8a3db200f2397bf6de3481ec702e08e3d2264cda341e88d2d114eecbe50aa9c6,0,0,0,1,0,1,1,1,0,0,1,1,1,1
23,23,0,0,76c9ce3f,a9c4e22128c00031e6c1533bb8c9d73fd9d61d3e01e84f3682fb3029740f0a18,0,48c00230,f4de7bfaa3cf730e0ec501213cc05530a8c1ee3a2ec9c23f11d65a3e0de7d836,0,63362cc0,733bdedddd3fd0ce073e91c4203624c0ed28f6c1b917d9c9320409d743f03ce8,f,bcbcbcbc,14d6662254de912a71e7a5312ff174374ffbd73b8d05b23ea60ff13f59198e3f,0,0,0,1,0,1,1,1,0,0,1,1,1,1
24,24,0,0,120f6718,edd6173e19e841369bfb1d298c0ff317f8217104103180f05c3b13ded93ff8ce,0,b1e60c37,aec1f73a3bc9c53f24d6553e25e7cc3694fae6298c0ee71817217805653081f1,0,a5f0dee7,da28fcc1a117e7c919041dd72bf053e8c9dddafbbfcec90f88c42d2222c03831,f,bcbcbcbc,ac08b2c572fe3bc242f45ac05fea19c00ae17cc180d878c4fad0fbc8a7cae7ce,0,0,1,1,0,1,1,0,0,0,1,1,1,1
25,25,0,0,d23f39cf,0d225804203168f0653bfedddb3fe8ce113e9fc4343626c00a29ecc1dc17c5c9,0,2330e2f1,adfad329a40ed0182c215f05763068f1013bdedec73f93cf4f3e04c5bf363ac0,0,29c0f830,b3ddf3fbafcee10f7fc4422220c0493102c27d3bf4c9df3f30d7013e6ae81336,f,bcbcbcbc,661b403f4624e23c392cf438093391338b38dc2c9a3c01251c3f331c0040ad12,0,0,0,1,0,1,1,1,0,0,1,1,1,1
26,26,0,0,391890c9,0a3e96c4273625c0f728f2c1c417d3c93f0400d74ff030e8e8ddb4fbd8cea50f,0,f23643c0,0b3bc9dec93f82cf493efac4b13638c0c029b4c1b91848c9460537d650f13ce7,0,0de84836,08c2863b02cae03f44d7fb3d82e805360cfcc628fa0f8a1757220004593112f0,f,bcbcbcbc,71c960d0cdc4ced7aec144e028c08ae943c063f301c28efd55c5ca072acad311,0,0,0,1,0,1,1,1,0,0,1,1,1,1
27,27,0,0,18cf430f,260413d737f047e8d3ddcefbc8cebd0f8dc4222223c03031f9c16f3be0c9dc3f,0,b1f1dfe6,ad29bac1a11855c92d054ad637f153e7b3dec6fa72cfbd0ef0c4422136c08630,0,183174f0,25fcb328121073176c22e7036931faef8f3b9edde23f9fcef53d76c4f8351fc0,f,bcbcbcbc,f93f8310de3e6f06263c32fce4370df2343244e83a2b17df2523c1d62a1a7acf,0,0,0,1,0,1,1,1,0,0,1,1,1,1
28,28,0,0,abc9d53f,83c4372221c04131ffc1783bedc9de3f26d7043e5fe81936e7fbe328d50fad17,0,3fc04430,9ededffa61cfd50ee7c4572134c09630c0c1143b62c9cb3f5dd6433e6ae7a436,0,2d3625c0,983b89dde33f8fceee3d6cc4ea351dc09f280fc25b170fcace0357d7e2ef99e8,f,bcbcbcbc,6bcbf913e9d16b1d95d91c263de2d22da9eb5d349af59039cfff4a3d050a723f,0,0,0,1,0,1,1,1,0,0,1,1,1,1
29,29,0,0,740f0a18,3ad7fe3d76e80c3600fcd028ee0f96174d220d0451311ff0813bbedde03fb7ce,0,0de7d836,c5c11e3b6fc9cd3f70d63e3e81e79736f8fa9a29ee0e8a186d211405a7301ff1,0,43f03ce8,8c2815c244171dcab5036ad7c9efb0e874dd3efc80ce2a1063c482221cc07931,f,bcbcbcbc,17180ace530e4cc83104fcc3f3f935c1ddef0ac031e682c02edd9ac20fd545c6,0,0,0,1,0,1,1,1,0,0,1,1,1,1
30,30,0,0,d93ff8ce,6222f403613106f08a3ba9dde13fa7cef83d7ac4fe3520c0bc2805c27e17fbc9,0,653081f1,12fb8729060f73188221fb04b73006f1283b89decf3f51cf383eddc48a3632c0,0,22c03831,5fdd58fc70ce43105ac497221ac088311bc2a13b2acae53f7ed7e83dc8e8dc35,f,bcbcbcbc,3c0cb33f1a16df3f661f683ee527583b5d2fc336a035c630833a8a29e63d3e21,0,0,0,1,0,1,1,1,0,0,1,1,1,1
31,31,0,0,dc17c5c9,f13d71c4f1351ec0a9280bc2671708cadb034dd7eeef8de894dd19fc97ce0610,0,bf363ac0,313b73ded13f41cf323ed3c47d3630c07429cbc15c187cc9e20483d6eef099e7,0,6ae81336,22c2ab3b38cae63f91d7e23ddfe8cf3571fc78285b102c17ac229c039831b1ef,f,bcbcbcbc,6bd347c7aaccbbcc39c780d33dc368dbcfc040e400c0cfedd4c0d4f747c30f02,0,0,0,1,0,1,1,1,0,0,1,1,1,1
32,32,0,0,d8cea50f,c20361d7d6efa5e87edd32fc87ce1e1068c477221dc0713112c2943b16cae33f,0,50f13ce7,6029d1c145188ac9c90496d6d5f0b0e75ede2bfb31cf1e0fcac498212ec0c730,0,593112f0,8afc652873101517c1228303a83199efb43b4adde83f60cedb3d51c4c13519c0,f,bcbcbcbc,6f3e4c1fe13ffe15b03f1f0cde3df101773ab6f79035b2ed492f26e4cd2750db,0,0,0,1,0,1,1,1,0,0,1,1,1,1
33,33,0,0,e0c9dc3f,5fc48c221bc0803118c29d3b24cae43f74d7eb3dbce8e3354bfc962837105017,0,36c08630,48de44fb20cf370fc0c4ad212cc0d830d7c13b3b97c9d33fa9d62c3ec7e77036,0,f8351fc0,bd3b34dde93f50ced53d48c4b43518c0512828c2fe1646ca6a03a5d780eff7e8,f,bcbcbcbc,06c44f045bc8700e1dce331825d5572147dda1294ce6da30faefd23611fa633b,0,0,0,1,0,1,1,1,0,0,1,1,1,1
34,34,0,0,d50fad17,88d7e53dd4e8d63564fc82284f103817a122a8039031bdefa63b69dde63f78ce,0,6ae7a436,ddc1443ba4c9d43fbcd6263edee763365dfb4d294f0f2d18c221b004e830bdf0,0,e2ef99e8,3e282fc2e61653ca5103b8d768ef0ee91fdda3fc40ce8c103fc4d62216c0b831,f,bcbcbcbc,04267dd9501dd4d1dd135acbe70938c6b1ff92c27cf57ec08deb0bc023e23bc1,0,0,0,1,0,1,1,1,0,0,1,1,1,1
35,35,0,0,e03fb7ce,b6228f03a031a5efaf3b54dde73f68cede3d55c4c8351ac06f281ec2211731ca,0,a7301ff1,76fb3a29680f1618d8219704f830a5f04e3b33ded63f10cf203eb7c455362bc0,0,1cc07931,0addbcfc30cea41036c4eb2215c0c83135c2c63b61caea3fccd7ce3d26e9a635,f,bcbcbcbc,50fc303c8d06e43e9f10fa3f451a6e3f3e23413d502b833946324c34f337be2d,0,0,0,1,0,1,1,1,0,0,1,1,1,1
36,36,0,0,7e17fbc9,d83d4cc4ba3518c05b2825c209173fca76039bd78defebe83fdd7dfc58ce6710,0,8a3632c0,573b1eded83f00cf1a3eadc4483629c02729e3c1ff17b1c97e04d0d68cf0f6e7,0,c8e8dc35,3cc2cf3b6fcaec3fdfd7c83d3de99835d5fc2a28bc10cf1600233803d83150ef,f,bcbcbcbc,2ae0b5c1b7d7d9c44cd081c91aca8dcf4ac5d8d6fac131df41c060e82ac02bf2,0,0,0,1,0,1,1,1,0,0,1,1,1,1
37,37,0,0,97ce0610,5d03afd774ef02e92add96fc48ce801043c4cc2217c0b0312bc2b83b4ccae83f,0,eef099e7,1329e9c1e717bfc96504e3d674f00de808de8ffbf0ce800fa4c4ed2127c00831,0,9831b1ef,eefc1728d410b71615231e03e73138efd83bf5dced3f20cec13d2dc48a3514c0,f,bcbcbcbc,0239232ceb3c2e24453f4b1bff3fb611173fac07903c70fd7d3845f3f7326ee9,0,0,1,1,0,1,1,0,0,0,1,1,1,1
38,38,0,0,16cae33f,3ac4e12216c0c03132c2c13b5acaea3fc2d7d13d1ae9ad35affc48289810f216,0,2ec0c730,f3dda8fbe0ce980f9bc4022225c01831efc1613bccc9da3ff6d6143e24e83b36,0,c13519c0,e03be0dcee3f11ceba3d24c47d3513c0032842c2a0167cca0503f3d71fef55e9,f,bcbcbcbc,5dc05ff443c290febec5c908b7cac9120ed14e1c98d81a2525e1f22c7beaa333,0,0,0,1,0,1,1,1,0,0,1,1,1,1
39,39,0,0,37105017,d6d7cb3d31e99f35c8fc3428b010da16f6224403d0315cefca3b15ddeb3f38ce,0,c7e77036,f6c16a3bd9c9db3f09d70e3e3ce82d36c1fb0029b10fd01718224c0428315bf0,0,80eff7e8,f02749c288168acaec0207d807ef6ce9cbdc07fd01ceed101bc42a2311c0f731,f,bcbcbcbc,923156e77b2a3bde4d22fed53e19d4ce890fecc86f056dc431fb76c112f118c0,0,0,0,1,0,1,1,1,0,0,1,1,1,1
40,40,0,0,e63f78ce,0b232b03e03144efd33b00ddec3f28cec43d31c4913514c0212838c2c31668ca,0,e830bdf0,dafbed28c90fb9172d223204383143f0733bdedddd3fd0ce073e91c4203624c0,0,16c0b831,b6dc20fdf1cd051112c43f2310c0073250c2e93b98caef3f1ad8b43d84e96f35,f,bcbcbcbc,9eecef3498f6ff39d000923d030b913fed14f03f4f1eac3ee926cc3b852e6537,0,0,0,1,0,1,1,1,0,0,1,1,1,1
41,41,0,0,211731ca,be3d28c4843513c00d283fc2ab1676ca1203e9d72cef49e9ebdce2fc19cec810,0,55362bc0,7d3bc9dddf3fbfce013e88c4133622c0da28fcc1a117e7c919041dd72bf053e8,0,26e9a635,56c2f23ba6caf03f2ed8ad3d9be9613539fddc271d1171165423d3021632efee,f,bcbcbcbc,e4ee03c046e5a4c057dce5c251d4b6c66acdffcbcfc79dd2a4c364da05c122e3,0,0,0,1,0,1,1,1,0,0,1,1,1,1
42,42,0,0,58ce6710,f902fdd713ef60e9d6dcfbfc09cee11020c4202312c0ef3146c2dc3b83caed3f,0,8cf0f6e7,c62802c28a17f4c9000430d712f06ae8b3ddf3fbafcee10f7fc4422220c04931,0,d83150ef,53fdc827351159166923ba022632d7eefb3ba1dcf13fe2cda63d09c453350fc0,f,bcbcbcbc,09303c362b361e30e93ac528253e6120ca3f2817cd3f580d2d3e3003f63af3f8,0,0,0,1,0,1,1,1,0,0,1,1,1,1
43,43,0,0,4ccae83f,17c4352311c0ff314cc2e53b91caef3f10d8b73d78e9763514fdf927f9109416,0,27c00831,9edd0cfc9fcefa0f76c457221fc0593108c2863b02cae03f44d7fb3d82e80536,0,8a3514c0,043c8cdcf23fd2cda03d01c445350ec0b5275dc24116b4caa10242d8bfeeb3e9,f,bcbcbcbc,a9c029e502c0c6ee00c1d4f89ac31003c0c7390d57cd0b173ad446203ddcad28,0,0,0,1,0,1,1,1,0,0,1,1,1,1
44,44,0,0,9810f216,24d8b03d8fe968352dfde62711117c164a23e0020f32fbeeee3bc1dcf03ff9cd,0,24e83b36,0fc28f3b0fcae23f57d7f53d99e8f83525fcb328121073176c22e7036931faef,0,1fef55e9,a12764c22a16c2ca880255d8a6eecae977dc6cfdc3cd4e11f8c37e230dc03632,f,bcbcbcbc,0c3ab7f60135bcec9a2e3ee302277eda6a1eb3d20b1511cc220bc4c6f000eec2,0,0,0,1,0,1,1,1,0,0,1,1,1,1
45,45,0,0,eb3f38ce,5f23c7021e32e3eef73bacdcf13feacdaa3d0ec45a3510c0d22753c265169fca,0,28315bf0,3efc9f282a105b178202ce037931e2ef983b89dde33f8fceee3d6cc4ea351dc0,0,11c0f731,63dc85fdb3cd6611efc393230cc045326bc20c3cd0caf33f69d8993de2e93735,f,bcbcbcbc,20de632a39e77e31f4f0553712fbc13b5005a53e6b0fef3f2119953f32229a3d,0,0,0,1,0,1,1,1,0,0,1,1,1,1
46,46,0,0,c31668ca,a33d05c44c350fc0be275ac24d16adcaad0238d8cbeea7e997dc46fddacd2911,0,203624c0,a13b74dde53f80cee83d63c4dc351cc08c2815c244171dcab5036ad7c9efb0e8,0,84e96f35,72c2153cdecaf43f7dd8923dfae929359efd8d277e111216a8236f0255328eee,f,bcbcbcbc,affe4bc27ef460c099ea16c040e16fc1b1d862c423d1dcc8c9cabfcecbc5e6d5,0,0,0,1,0,1,1,1,0,0,1,1,1,1
47,47,0,0,19cec810,94024bd8b2eebfe982dc5ffdcacd4111fcc374230ec02e3260c2ff3bbbcaf23f,0,2bf053e8,78281bc22c172aca9c037ed7b1efc8e85fdd58fc70ce43105ac497221ac08831,0,1632efee,b7fd79279611fb15bd235602643276ee1e3c4edcf53fa3cd8b3de7c31b350bc0,f,bcbcbcbc,1424f43c0c2c1039e432b5336e38082d863c3325113f6a1cff3fe712493fe808,0,0,0,1,0,1,1,1,0,0,1,1,1,1
48,48,0,0,83caed3f,f4c389230dc03d3267c2083cc9caf33f5fd89c3dd6e93e3578fdab275a113616,0,20c04931,4add71fc60ce5b1051c4ac2219c0983122c2ab3b38cae63f91d7e23ddfe8cf35,0,53350fc0,263c39dcf63f94cd843ddec30d350ac0662778c2e315ecca3c0291d85eee11ea,f,bcbcbcbc,e5c49fd7bcc10fe02cc050e93ec026f3f2c151fd3dc58d0709ca981137d02f1b,0,0,0,1,0,1,1,1,0,0,1,1,1,1
49,49,0,0,f9109416,73d8953deee9303591fd972772111e169d237b024d329aee113c6ddcf43fbbcd,0,82e80536,28c2b43b46cae83fa5d7db3df7e8c1358afc652873101517c1228303a83199ef,0,bfeeb3e9,52277fc2cb15faca2302a4d846ee29ea24dcd0fd84cdae11d5c3d22309c07432,f,bcbcbcbc,e93eac063b3c6ffc023849f25a327de8672b4cdf5823f0d6611aa2cfbe1091c9,0,0,0,1,0,1,1,1,0,0,1,1,1,1
50,50,0,2,f03ffccd,b22362025d3282ee193c58dcf53fabcd8e3debc322350cc083276ec20616d7ca,0,6931faef,a3fc51288c10fe16d6226a03b83180efbd3b34dde93f50ced53d48c4b43518c0,0,0dc03632,0fdce9fd75cdc611cdc3e62309c0833286c22f3c08cbf73fb8d87d3d40eaff34,f,bcbcbcbc,bed1341d64d9ea2507e2a82d6feb39345df5753991ff383dc809693fbf13fb3f,0,0,0,1,0,1,1,1,0,0,1,1,1,1
51,51,0,0,65169fca,883de2c314350bc06f2775c2ef15e5ca490287d86aee05ea43dcaafd9ccd8a11,0,ea351dc0,c63b1fddea3f40cece3d3fc4a63516c03e282fc2e61653ca5103b8d768ef0ee9,0,e2e93735,8dc2373c16cbf83fccd8763d58eaf13402fe3e27df11b415fb230a0293322dee,f,bcbcbcbc,8f0e6bc86e0411c030fa41c118f00cc069e67ac061dd89c23dd52bc630ce48cb,0,0,1,1,0,1,1,0,0,0,1,1,1,1
52,52,0,0,dacd2911,30029ad852ee1dea2edcc4fd8ccda211dac3c7230ac06c327cc2223cf3caf63f,0,c9efb0e8,2a2835c2cf1661ca3803ccd750ef26e90addbcfc30cea41036c4eb2215c0c831,0,55328eee,1bfe2a27f7119c151024f101a23215ee403cfadbf93f66cd6f3dc4c3e33408c0,f,bcbcbcbc,e015e33f311f763eb5276f3b342fe2367e35ee306a3ab929d63d7221ad3f5018,0,0,0,1,0,1,1,1,0,0,1,1,1,1
53,53,0,0,bbcaf23f,d1c3dc2309c07c3283c22b3c01cbf73faed8813d35ea0635ddfd5c27ba11d715,0,1ac08831,f5dcd5fc20cebc102dc4002314c0d8313cc2cf3b6fcaec3fdfd7c83d3de99835,0,1b350bc0,483ce6dbf93f56cd683dbcc3d53407c0162794c2851524cbd801e0d8fded70ea,f,bcbcbcbc,cecc97cc56c754d350c336dbd9c009e400c094edcac097f733c3d2012bc7000c,0,0,0,1,0,1,1,1,0,0,1,1,1,1
54,54,0,0,5a113616,c2d87a3d4ceaf834f6fd4827d311c015f12317028b323aee333c1adcf73f7dcd,0,dfe8cf35,42c2d83b7ccaed3ff3d7c13d55e98a35eefc1728d410b71615231e03e73138ef,0,5eee11ea,02279bc26d1532cbbf01f4d8e5ed87ead1db35fe47cd0f12b3c3252406c0b132,f,bcbcbcbc,dd3f3716b63f5b0cee3d2e028f3af3f7b135eded732f5de4fd2782db811f97d3,0,0,0,1,0,1,1,1,0,0,1,1,1,1
