Sample in Buffer,Sample in Window,TRIGGER,u2_adc_top/u1_adc_module/u_adc_jesd204b/gt0_rxcharisk[3:0],u2_adc_top/u1_adc_module/u_adc_jesd204b/gt0_rxdata[31:0],adc1_sync
0,0,0,2,d8fffcff,1
1,1,0,0,f8ffe8ff,1
2,2,0,0,f8ffe8ff,1
3,3,0,0,e8ff1800,1
4,4,0,8,fc000800,1
5,5,0,8,fc000800,1
6,6,0,8,fcfff8ff,1
7,7,0,8,fcfff8ff,1
8,8,0,0,18000800,1
9,9,0,0,2800f8ff,1
10,10,0,0,0800f8ff,1
11,11,0,8,fcfff8ff,1
12,12,0,0,0800d8ff,1
13,13,0,2,d8fffc00,1
14,14,0,8,fcfff8ff,1
15,15,0,8,fc001800,1
16,16,0,0,f8ff0800,1
17,17,0,8,fc000800,1
18,18,0,8,fcfff8ff,1
19,19,0,0,08002800,1
20,20,0,2,0800fc00,1
21,21,0,0,0800e8ff,1
22,22,0,0,28001800,1
23,23,0,0,0800f8ff,1
24,24,0,2,f8fffc00,1
25,25,0,8,fc000800,1
26,26,0,8,fcfff8ff,1
27,27,0,0,38001800,1
28,28,0,0,0800f8ff,1
29,29,0,0,f8ff1800,1
30,30,0,0,f8ff0800,1
31,31,0,8,fc000800,1
32,32,0,8,fcfff8ff,1
33,33,0,0,f8ffe8ff,1
34,34,0,8,fc000800,1
35,35,0,0,28001800,1
36,36,0,0,f8ff0800,1
37,37,0,0,f8ff1800,1
38,38,0,0,f8ff0800,1
39,39,0,2,1800fcff,1
40,40,0,8,fcffe8ff,1
41,41,0,8,fc000800,1
42,42,0,0,0800f8ff,1
43,43,0,0,1800f8ff,1
44,44,0,2,0800fc00,1
45,45,0,8,fcfff8ff,1
46,46,0,0,e8ff2800,1
47,47,0,8,fcfff8ff,1
48,48,0,0,f8ffe8ff,1
49,49,0,0,e8ff0800,1
50,50,0,8,fcfff8ff,1
51,51,0,8,fc000800,1
52,52,0,8,fcfff8ff,1
53,53,0,8,fcfff8ff,1
54,54,0,0,f8ff0800,1
55,55,0,2,0800fcff,1
56,56,0,2,0800fc00,1
57,57,0,2,0800fc00,1
58,58,0,8,fcfff8ff,1
59,59,0,0,0800f8ff,1
60,60,0,0,e8ff1800,1
61,61,0,8,fc000800,1
62,62,0,2,f8ff7c00,1
63,63,0,2,f8fffcff,1
64,64,0,2,0800fcff,1
65,65,0,2,e8fffc00,1
66,66,0,8,fcfff8ff,1
67,67,0,0,0800f8ff,1
68,68,0,2,0800fc00,1
69,69,0,0,e8fff8ff,1
70,70,0,0,f8ff2800,1
71,71,0,0,f8ff0800,1
72,72,0,0,0800d8ff,1
73,73,0,0,1800f8ff,1
74,74,0,0,0800f8ff,1
75,75,0,0,e8fff8ff,1
76,76,0,8,fcfff8ff,1
77,77,0,0,f8ff0800,1
78,78,0,2,f8fffcff,1
79,79,0,2,1800fcff,1
80,80,0,0,f8ffe8ff,1
81,81,0,2,1800fcff,1
82,82,0,0,f8ff0800,1
83,83,0,8,fc000800,1
84,84,0,0,0800d8ff,1
85,85,0,0,0800f8ff,1
86,86,0,2,f8fffc00,1
87,87,0,0,0800e8ff,1
88,88,0,8,fcfff8ff,1
89,89,0,0,f8ffe8ff,1
90,90,0,2,f8fffcff,1
91,91,0,2,f8fffcff,1
92,92,0,0,1800d8ff,1
93,93,0,0,f8ffe8ff,1
94,94,0,0,f8ff1800,1
95,95,0,2,2800fcff,1
96,96,0,0,1800f8ff,1
97,97,0,0,0800e8ff,1
98,98,0,2,e8fffc00,1
99,99,0,2,0800fcff,1
100,100,1,0,08001800,1
101,101,0,0,0800f8ff,1
102,102,0,2,0800fc00,1
103,103,0,2,0800fc00,1
104,104,0,2,e8fffc00,1
105,105,0,2,f8fffcff,1
106,106,0,0,d8ff1800,1
107,107,0,0,0800f8ff,1
108,108,0,0,0800f8ff,1
109,109,0,0,08001800,1
110,110,0,0,d8ffe8ff,1
111,111,0,0,f8ff0800,1
112,112,0,0,f8ff0800,1
113,113,0,2,f8fffcff,1
114,114,0,8,fc000800,1
115,115,0,8,fcfff8ff,1
116,116,0,8,fc000800,1
117,117,0,0,0800f8ff,1
118,118,0,0,f8ffe8ff,1
119,119,0,0,f8ff0800,1
120,120,0,2,f8fffcff,1
121,121,0,0,08002800,1
122,122,0,0,f8ffe8ff,1
123,123,0,0,d8ff0800,1
124,124,0,0,0800f8ff,1
125,125,0,2,f8fffc00,1
126,126,0,8,fcffe8ff,1
127,127,0,0,e8fff8ff,1
128,128,0,0,e8fff8ff,1
129,129,0,0,0800f8ff,1
130,130,0,2,0800fc00,1
131,131,0,0,f8ffe8ff,1
132,132,0,0,0800e8ff,1
133,133,0,8,fcfff8ff,1
134,134,0,0,0800f8ff,1
135,135,0,0,0800f8ff,1
136,136,0,2,2800fc00,1
137,137,0,0,0800f8ff,1
138,138,0,0,0800f8ff,1
139,139,0,2,0800fc00,1
140,140,0,8,fcfff8ff,1
141,141,0,0,1800f8ff,1
142,142,0,8,fcffd8ff,1
143,143,0,0,f8ff0800,1
144,144,0,8,fcffe8ff,1
145,145,0,8,fcfff8ff,1
146,146,0,0,0800f8ff,1
147,147,0,8,fcfff8ff,1
148,148,0,0,e8ff1800,1
149,149,0,8,fcfff8ff,1
150,150,0,8,fc001800,1
151,151,0,0,1800f8ff,1
152,152,0,8,fcfff8ff,1
153,153,0,8,fcfff8ff,1
154,154,0,0,1800e8ff,1
155,155,0,0,f8ffe8ff,1
156,156,0,8,fc001800,1
157,157,0,0,0800f8ff,1
158,158,0,2,f8fffc00,1
159,159,0,0,f8ffe8ff,1
160,160,0,2,0800fcff,1
161,161,0,0,1800f8ff,1
162,162,0,0,18000800,1
163,163,0,0,2800f8ff,1
164,164,0,8,fcfff8ff,1
165,165,0,0,18000800,1
166,166,0,0,f8ff0800,1
167,167,0,0,0800e8ff,1
168,168,0,2,e8fffc00,1
169,169,0,2,d8fffcff,1
170,170,0,0,18000800,1
171,171,0,8,fc000800,1
172,172,0,0,f8ff1800,1
173,173,0,0,f8ffe8ff,1
174,174,0,8,fcffe8ff,1
175,175,0,0,e8fff8ff,1
176,176,0,2,0800fcff,1
177,177,0,0,f8ffe8ff,1
178,178,0,0,f8ff1800,1
179,179,0,2,0800fcff,1
180,180,0,0,e8fff8ff,1
181,181,0,0,d8ffc8ff,1
182,182,0,8,fc000800,1
183,183,0,0,1800e8ff,1
184,184,0,0,f8ff0800,1
185,185,0,2,e8fffcff,1
186,186,0,2,e8fffcff,1
187,187,0,0,28000800,1
188,188,0,0,2800f8ff,1
189,189,0,0,2800f8ff,1
190,190,0,0,0800f8ff,1
191,191,0,2,0800fc00,1
192,192,0,2,0800fc00,1
193,193,0,0,0800e8ff,1
194,194,0,2,f8fffc00,1
195,195,0,0,f8ff1800,1
196,196,0,8,fc000800,1
197,197,0,2,d8ff7c00,1
198,198,0,0,28000800,1
199,199,0,0,1800d8ff,1
200,200,0,0,f8ff0800,1
201,201,0,2,0800fcff,1
202,202,0,2,f8fffc00,1
203,203,0,2,e8fffcff,1
204,204,0,0,08001800,1
205,205,0,0,0800f8ff,1
206,206,0,8,fc001800,1
207,207,0,0,0800d8ff,1
208,208,0,2,f8fffc00,1
209,209,0,0,f8ff0800,1
210,210,0,0,e8ff0800,1
211,211,0,8,fcfff8ff,1
212,212,0,0,08001800,1
213,213,0,2,1800fc00,1
214,214,0,2,e8fffc00,1
215,215,0,8,fcfff8ff,1
216,216,0,8,fcfff8ff,1
217,217,0,8,fcfff8ff,1
218,218,0,0,e8fff8ff,1
219,219,0,2,f8fffcff,1
220,220,0,8,fc000800,1
221,221,0,8,fc000800,1
222,222,0,8,fcfff8ff,1
223,223,0,8,fcfff8ff,1
224,224,0,8,fcfff8ff,1
225,225,0,0,f8ff1800,1
226,226,0,2,1800fcff,1
227,227,0,8,fcfff8ff,1
228,228,0,0,f8ffe8ff,1
229,229,0,0,08002800,1
230,230,0,0,08001800,1
231,231,0,0,f8ffe8ff,1
232,232,0,8,fc000800,1
233,233,0,0,0800f8ff,1
234,234,0,0,f8ffe8ff,1
235,235,0,2,e8fffcff,1
236,236,0,8,fcfff8ff,1
237,237,0,0,0800e8ff,1
238,238,0,0,0800f8ff,1
239,239,0,8,fcffe8ff,1
240,240,0,0,f8ffe8ff,1
241,241,0,2,f8fffcff,1
242,242,0,2,f8ff7cff,1
243,243,0,2,f8fffcff,1
244,244,0,0,1800d8ff,1
245,245,0,0,28000800,1
246,246,0,8,fcfff8ff,1
247,247,0,8,fc000800,1
248,248,0,0,f8ff0800,1
249,249,0,2,e8fffcff,1
250,250,0,0,0800f8ff,1
251,251,0,8,fcfff8ff,1
252,252,0,0,0800f8ff,1
253,253,0,0,d8ffe8ff,1
254,254,0,0,f8ff0800,1
255,255,0,2,1800fcff,1
256,256,0,0,1800f8ff,1
257,257,0,8,fcfff8ff,1
258,258,0,8,fc000800,1
259,259,0,0,28000800,1
260,260,0,0,f8ff0800,1
261,261,0,2,0800fcff,1
262,262,0,0,1800f8ff,1
263,263,0,0,f8ff0800,1
264,264,0,0,f8ff0800,1
265,265,0,0,f8ff0800,1
266,266,0,0,e8ff2800,1
267,267,0,8,fcfff8ff,1
268,268,0,0,f8ffe8ff,1
269,269,0,0,f8ff0800,1
270,270,0,8,fc000800,1
271,271,0,0,0800f8ff,1
272,272,0,0,08001800,1
273,273,0,0,0800e8ff,1
274,274,0,2,0800fc00,1
275,275,0,2,e8fffc00,1
276,276,0,8,fc000800,1
277,277,0,8,fcfff8ff,1
278,278,0,0,1800f8ff,1
279,279,0,0,f8ffe8ff,1
280,280,0,0,08001800,1
281,281,0,8,fcffe8ff,1
282,282,0,0,f8ff0800,1
283,283,0,2,e8fffcff,1
284,284,0,8,fcfff8ff,1
285,285,0,8,fcfff8ff,1
286,286,0,0,e8fff8ff,1
287,287,0,8,fcfff8ff,1
288,288,0,0,e8fff8ff,1
289,289,0,8,fcfff8ff,1
290,290,0,8,fcfff8ff,1
291,291,0,0,18000800,1
292,292,0,2,0800fc00,1
293,293,0,2,f8fffc00,1
294,294,0,2,f8fffcff,1
295,295,0,8,fc000800,1
296,296,0,0,0800e8ff,1
297,297,0,2,0800fc00,1
298,298,0,0,f8ff1800,1
299,299,0,2,f8fffcff,1
300,300,0,8,fc000800,1
301,301,0,0,0800f8ff,1
302,302,0,0,e8ff1800,1
303,303,0,8,fcfff8ff,1
304,304,0,0,28000800,1
305,305,0,0,0800f8ff,1
306,306,0,8,fcfff8ff,1
307,307,0,0,f8ffe8ff,1
308,308,0,0,18000800,1
309,309,0,0,0800f8ff,1
310,310,0,0,0800f8ff,1
311,311,0,8,fcfff8ff,1
312,312,0,0,e8ff0800,1
313,313,0,0,f8ff0800,1
314,314,0,0,2800e8ff,1
315,315,0,8,fcfff8ff,1
316,316,0,8,fcfff8ff,1
317,317,0,0,f8ff0800,1
318,318,0,2,f8fffcff,1
319,319,0,0,e8ff0800,1
320,320,0,8,fcfff8ff,1
321,321,0,0,f8ff0800,1
322,322,0,0,f8ffe8ff,1
323,323,0,2,0800fcff,1
324,324,0,8,fcfff8ff,1
325,325,0,0,f8ff1800,1
326,326,0,2,f8fffcff,1
327,327,0,2,f8fffcff,1
328,328,0,0,e8ff0800,1
329,329,0,8,fcfff8ff,1
330,330,0,0,f8ff1800,1
331,331,0,0,08001800,1
332,332,0,0,0800e8ff,1
333,333,0,0,0800f8ff,1
334,334,0,8,fcfff8ff,1
335,335,0,0,0800f8ff,1
336,336,0,2,f8fffc00,1
337,337,0,0,f8ff0800,1
338,338,0,8,fc000800,1
339,339,0,0,e8fff8ff,1
340,340,0,0,f8ffd8ff,1
341,341,0,2,0800fcff,1
342,342,0,2,f8fffc00,1
343,343,0,0,f8ff2800,1
344,344,0,0,f8ff0800,1
345,345,0,2,f8fffcff,1
346,346,0,0,f8ff0800,1
347,347,0,0,08002800,1
348,348,0,0,28001800,1
349,349,0,0,0800f8ff,1
350,350,0,0,f8ff1800,1
351,351,0,0,18000800,1
352,352,0,0,18000800,1
353,353,0,0,08002800,1
354,354,0,0,f8ff1800,1
355,355,0,8,fc000800,1
356,356,0,0,0800f8ff,1
357,357,0,0,2800f8ff,1
358,358,0,0,0800f8ff,1
359,359,0,0,1800f8ff,1
360,360,0,2,1800fc00,1
361,361,0,2,0800fc00,1
362,362,0,0,0800f8ff,1
363,363,0,2,f8fffc00,1
364,364,0,0,18000800,1
365,365,0,8,fcfff8ff,1
366,366,0,0,0800f8ff,1
367,367,0,2,e8fffc00,1
368,368,0,0,18000800,1
369,369,0,2,0800fc00,1
370,370,0,0,0800e8ff,1
371,371,0,0,0800f8ff,1
372,372,0,0,0800f8ff,1
373,373,0,0,e8ff1800,1
374,374,0,0,2800f8ff,1
375,375,0,8,fc001800,1
376,376,0,8,fc001800,1
377,377,0,8,fcfff8ff,1
378,378,0,0,f8ff1800,1
379,379,0,2,0800fcff,1
380,380,0,0,e8fff8ff,1
381,381,0,0,1800f8ff,1
382,382,0,0,e8ffd8ff,1
383,383,0,0,e8ff0800,1
384,384,0,0,0800f8ff,1
385,385,0,8,fcfff8ff,1
386,386,0,8,fcfff8ff,1
387,387,0,0,e8ff0800,1
388,388,0,8,fcfff8ff,1
389,389,0,8,fcfff8ff,1
390,390,0,8,fcffe8ff,1
391,391,0,0,0800d8ff,1
392,392,0,0,1800e8ff,1
393,393,0,0,f8ff0800,1
394,394,0,0,0800d8ff,1
395,395,0,0,f8ff2800,1
396,396,0,0,18000800,1
397,397,0,0,f8ff0800,1
398,398,0,2,f8fffcff,1
399,399,0,8,fc000800,1
400,400,0,8,fcfff8ff,1
401,401,0,0,0800f8ff,1
402,402,0,2,0800fc00,1
403,403,0,2,0800fc00,1
404,404,0,0,08001800,1
405,405,0,0,f8ffe8ff,1
406,406,0,0,f8ff1800,1
407,407,0,2,08007cff,1
408,408,0,0,0800f8ff,1
409,409,0,2,f8fffc00,1
410,410,0,0,18000800,1
411,411,0,0,f8ffe8ff,1
412,412,0,2,f8fffcff,1
413,413,0,2,e8fffcff,1
414,414,0,0,08002800,1
415,415,0,0,08001800,1
416,416,0,0,0800f8ff,1
417,417,0,0,1800f8ff,1
418,418,0,0,0800f8ff,1
419,419,0,0,e8ff1800,1
420,420,0,8,fcfff8ff,1
421,421,0,0,18000800,1
422,422,0,0,1800f8ff,1
423,423,0,2,1800fc00,1
424,424,0,2,2800fc00,1
425,425,0,0,0800e8ff,1
426,426,0,0,1800f8ff,1
427,427,0,0,e8fff8ff,1
428,428,0,2,2800fcff,1
429,429,0,8,fcfff8ff,1
430,430,0,8,fcfff8ff,1
431,431,0,0,18000800,1
432,432,0,2,0800fc00,1
433,433,0,2,1800fc00,1
434,434,0,0,f8ff0800,1
435,435,0,0,18000800,1
436,436,0,0,e8fff8ff,1
437,437,0,0,0800f8ff,1
438,438,0,2,0800fc00,1
439,439,0,0,f8ffd8ff,1
440,440,0,0,2800e8ff,1
441,441,0,0,0800f8ff,1
442,442,0,2,f8fffc00,1
443,443,0,0,f8ff0800,1
444,444,0,2,f8fffcff,1
445,445,0,0,08002800,1
446,446,0,0,0800e8ff,1
447,447,0,2,f8fffc00,1
448,448,0,8,fc000800,1
449,449,0,8,fc001800,1
450,450,0,8,fcfff8ff,1
451,451,0,0,0800f8ff,1
452,452,0,0,08001800,1
453,453,0,2,0800fc00,1
454,454,0,8,fcfff8ff,1
455,455,0,0,f8ff1800,1
456,456,0,0,08002800,1
457,457,0,0,f8ff2800,1
458,458,0,2,0800fcff,1
459,459,0,2,0800fc00,1
460,460,0,0,f8ff1800,1
461,461,0,0,f8ff0800,1
462,462,0,2,f8fffcff,1
463,463,0,8,fc000800,1
464,464,0,0,08001800,1
465,465,0,0,f8ff1800,1
466,466,0,0,f8ff0800,1
467,467,0,8,fc000800,1
468,468,0,0,28000800,1
469,469,0,0,e8ff0800,1
470,470,0,0,08001800,1
471,471,0,8,fcfff8ff,1
472,472,0,8,fcfff8ff,1
473,473,0,8,fc001800,1
474,474,0,0,18000800,1
475,475,0,0,18000800,1
476,476,0,0,0800f8ff,1
477,477,0,0,f8ff1800,1
478,478,0,2,2800fcff,1
479,479,0,8,fcffe8ff,1
480,480,0,0,f8ffe8ff,1
481,481,0,2,1800fcff,1
482,482,0,8,fc000800,1
483,483,0,8,fcfff8ff,1
484,484,0,0,1800f8ff,1
485,485,0,2,1800fc00,1
486,486,0,0,0800f8ff,1
487,487,0,8,fc001800,1
488,488,0,0,08001800,1
489,489,0,0,1800f8ff,1
490,490,0,0,e8fff8ff,1
491,491,0,0,0800f8ff,1
492,492,0,8,fcfff8ff,1
493,493,0,0,0800e8ff,1
494,494,0,0,08001800,1
495,495,0,0,e8fff8ff,1
496,496,0,0,f8ff0800,1
497,497,0,0,e8ff1800,1
498,498,0,0,e8ff0800,1
499,499,0,0,e8ff0800,1
500,500,0,0,1800f8ff,1
501,501,0,0,f8ff0800,1
502,502,0,2,0800fcff,1
503,503,0,0,0800e8ff,1
504,504,0,0,f8ff1800,1
505,505,0,2,0800fcff,1
506,506,0,2,1800fc00,1
507,507,0,0,0800f8ff,1
508,508,0,2,e8fffc00,1
509,509,0,0,f8ff0800,1
510,510,0,0,08001800,1
511,511,0,2,f8fffc00,1
512,512,0,2,08007cff,1
513,513,0,0,e8fff8ff,1
514,514,0,0,0800f8ff,1
515,515,0,2,0800fc00,1
516,516,0,2,0800fc00,1
517,517,0,2,e8fffc00,1
518,518,0,0,f8ff0800,1
519,519,0,2,0800fcff,1
520,520,0,2,0800fc00,1
521,521,0,0,e8ff2800,1
522,522,0,0,18002800,1
523,523,0,0,2800f8ff,1
524,524,0,8,fcfff8ff,1
525,525,0,0,0800f8ff,1
526,526,0,2,e8fffc00,1
527,527,0,8,fcfff8ff,1
528,528,0,8,fcfff8ff,1
529,529,0,0,0800e8ff,1
530,530,0,0,0800e8ff,1
531,531,0,8,fcffe8ff,1
532,532,0,0,18000800,1
533,533,0,8,fc000800,1
534,534,0,0,e8ff1800,1
535,535,0,0,28000800,1
536,536,0,0,28001800,1
537,537,0,0,f8ffe8ff,1
538,538,0,8,fc000800,1
539,539,0,0,0800e8ff,1
540,540,0,8,fcfff8ff,1
541,541,0,8,fcffe8ff,1
542,542,0,2,f8ff7cff,1
543,543,0,0,0800d8ff,1
544,544,0,2,f8fffc00,1
545,545,0,0,f8ffe8ff,1
546,546,0,2,0800fcff,1
547,547,0,2,0800fc00,1
548,548,0,8,fcfff8ff,1
549,549,0,0,e8fff8ff,1
550,550,0,0,28000800,1
551,551,0,0,2800e8ff,1
552,552,0,0,08001800,1
553,553,0,0,0800f8ff,1
554,554,0,2,0800fc00,1
555,555,0,0,08001800,1
556,556,0,2,d8fffc00,1
557,557,0,0,0800f8ff,1
558,558,0,8,fcfff8ff,1
559,559,0,0,0800f8ff,1
560,560,0,0,f8ff1800,1
561,561,0,2,1800fcff,1
562,562,0,2,e8fffc00,1
563,563,0,8,fcfff8ff,1
564,564,0,0,0800f8ff,1
565,565,0,2,1800fc00,1
566,566,0,8,fcfff8ff,1
567,567,0,0,18000800,1
568,568,0,0,0800f8ff,1
569,569,0,0,e8fff8ff,1
570,570,0,0,0800f8ff,1
571,571,0,0,0800f8ff,1
572,572,0,8,fcfff8ff,1
573,573,0,0,08001800,1
574,574,0,8,fcfff8ff,1
575,575,0,8,fc000800,1
576,576,0,8,fcfff8ff,1
577,577,0,8,fcfff8ff,1
578,578,0,0,f8ff0800,1
579,579,0,2,e8fffcff,1
580,580,0,8,fcfff8ff,1
581,581,0,0,e8fff8ff,1
582,582,0,0,e8ff0800,1
583,583,0,8,fc001800,1
584,584,0,8,fc001800,1
585,585,0,8,fcfff8ff,1
586,586,0,0,0800f8ff,1
587,587,0,0,0800f8ff,1
588,588,0,8,fcfff8ff,1
589,589,0,0,d8ffe8ff,1
590,590,0,2,0800fcff,1
591,591,0,0,0800f8ff,1
592,592,0,0,e8fff8ff,1
593,593,0,0,f8ffd8ff,1
594,594,0,0,f8ff0800,1
595,595,0,8,fc001800,1
596,596,0,8,fcfff8ff,1
597,597,0,8,fc000800,1
598,598,0,8,fcfff8ff,1
599,599,0,8,fc000800,1
600,600,0,8,fcfff8ff,1
601,601,0,0,18000800,1
602,602,0,8,fcfff8ff,1
603,603,0,8,fc000800,1
604,604,0,8,fc000800,1
605,605,0,0,0800e8ff,1
606,606,0,8,fcfff8ff,1
607,607,0,0,08001800,1
608,608,0,0,1800f8ff,1
609,609,0,0,f8ff0800,1
610,610,0,2,0800fcff,1
611,611,0,2,0800fc00,1
612,612,0,2,0800fc00,1
613,613,0,0,1800f8ff,1
614,614,0,2,f8fffc00,1
615,615,0,0,f8ff1800,1
616,616,0,0,28000800,1
617,617,0,8,fc000800,1
618,618,0,8,fcfff8ff,1
619,619,0,0,f8ff0800,1
620,620,0,0,f8ff0800,1
621,621,0,8,fc001800,1
622,622,0,8,fcfff8ff,1
623,623,0,0,f8ff1800,1
624,624,0,0,d8ff1800,1
625,625,0,0,0800f8ff,1
626,626,0,8,fcfff8ff,1
627,627,0,0,f8ffe8ff,1
628,628,0,0,18000800,1
629,629,0,0,f8ff0800,1
630,630,0,2,f8fffcff,1
631,631,0,8,fcffe8ff,1
632,632,0,8,fcfff8ff,1
633,633,0,0,f8ff1800,1
634,634,0,2,1800fcff,1
635,635,0,0,0800f8ff,1
636,636,0,0,08001800,1
637,637,0,0,f8ff1800,1
638,638,0,2,f8fffcff,1
639,639,0,2,f8fffcff,1
640,640,0,0,d8ff0800,1
641,641,0,0,e8ff0800,1
642,642,0,0,0800f8ff,1
643,643,0,2,0800fc00,1
644,644,0,0,f8ff1800,1
645,645,0,2,f8fffcff,1
646,646,0,2,0800fcff,1
647,647,0,2,f8ff7c00,1
648,648,0,8,fc000800,1
649,649,0,8,fcffe8ff,1
650,650,0,0,08001800,1
651,651,0,0,1800e8ff,1
652,652,0,0,0800f8ff,1
653,653,0,8,fcfff8ff,1
654,654,0,0,0800f8ff,1
655,655,0,8,fcfff8ff,1
656,656,0,8,fcfff8ff,1
657,657,0,0,0800f8ff,1
658,658,0,0,0800f8ff,1
659,659,0,2,e8fffc00,1
660,660,0,8,fc001800,1
661,661,0,8,fc000800,1
662,662,0,0,08001800,1
663,663,0,2,e8fffc00,1
664,664,0,0,08003800,1
665,665,0,2,0800fc00,1
666,666,0,8,fcfff8ff,1
667,667,0,0,0800f8ff,1
668,668,0,8,fcfff8ff,1
669,669,0,0,0800e8ff,1
670,670,0,0,0800f8ff,1
671,671,0,0,0800f8ff,1
672,672,0,0,0800e8ff,1
673,673,0,8,fcfff8ff,1
674,674,0,0,e8fff8ff,1
675,675,0,0,0800f8ff,1
676,676,0,0,0800e8ff,1
677,677,0,2,f8ff7c00,1
678,678,0,0,f8ff1800,1
679,679,0,8,fc000800,1
680,680,0,8,fcfff8ff,1
681,681,0,0,f8ff0800,1
682,682,0,2,0800fcff,1
683,683,0,0,e8fff8ff,1
684,684,0,0,18000800,1
685,685,0,0,08002800,1
686,686,0,0,e8fff8ff,1
687,687,0,8,fc000800,1
688,688,0,8,fc000800,1
689,689,0,0,08001800,1
690,690,0,0,0800d8ff,1
691,691,0,8,fcfff8ff,1
692,692,0,2,18007cff,1
693,693,0,0,1800f8ff,1
694,694,0,8,fc000800,1
695,695,0,0,f8ffe8ff,1
696,696,0,0,f8ff0800,1
697,697,0,2,e8fffcff,1
698,698,0,2,1800fcff,1
699,699,0,8,fcfff8ff,1
700,700,0,0,e8fff8ff,1
701,701,0,8,fc000800,1
702,702,0,0,f8ffe8ff,1
703,703,0,8,fc000800,1
704,704,0,8,fcfff8ff,1
705,705,0,0,f8ff0800,1
706,706,0,8,fc001800,1
707,707,0,0,e8fff8ff,1
708,708,0,0,2800f8ff,1
709,709,0,0,0800f8ff,1
710,710,0,2,e8fffc00,1
711,711,0,0,0800f8ff,1
712,712,0,0,f8ffe8ff,1
713,713,0,0,08001800,1
714,714,0,0,0800f8ff,1
715,715,0,2,f8fffc00,1
716,716,0,0,18000800,1
717,717,0,8,fcfff8ff,1
718,718,0,0,f8ff0800,1
719,719,0,2,0800fcff,1
720,720,0,8,fcfff8ff,1
721,721,0,8,fcfff8ff,1
722,722,0,2,f8ff7cff,1
723,723,0,0,0800e8ff,1
724,724,0,0,f8ffe8ff,1
725,725,0,2,f8fffcff,1
726,726,0,2,e8fffcff,1
727,727,0,0,0800f8ff,1
728,728,0,0,f8ff2800,1
729,729,0,0,e8ff1800,1
730,730,0,8,fcfff8ff,1
731,731,0,0,f8ff0800,1
732,732,0,2,0800fcff,1
733,733,0,0,1800d8ff,1
734,734,0,0,0800f8ff,1
735,735,0,2,0800fc00,1
736,736,0,2,1800fc00,1
737,737,0,0,f8ff0800,1
738,738,0,0,28000800,1
739,739,0,0,28000800,1
740,740,0,0,0800f8ff,1
741,741,0,8,fcfff8ff,1
742,742,0,0,0800f8ff,1
743,743,0,8,fcffe8ff,1
744,744,0,0,1800e8ff,1
745,745,0,8,fcfff8ff,1
746,746,0,8,fcfff8ff,1
747,747,0,0,0800f8ff,1
748,748,0,0,f8ff2800,1
749,749,0,8,fc000800,1
750,750,0,0,f8ff0800,1
751,751,0,0,e8ff1800,1
752,752,0,0,18000800,1
753,753,0,0,d8fff8ff,1
754,754,0,0,e8ff0800,1
755,755,0,8,fcfff8ff,1
756,756,0,0,0800e8ff,1
757,757,0,2,e8fffc00,1
758,758,0,0,e8fff8ff,1
759,759,0,0,f8ff0800,1
760,760,0,8,fc000800,1
761,761,0,8,fcfff8ff,1
762,762,0,0,0800f8ff,1
763,763,0,0,e8fff8ff,1
764,764,0,8,fcfff8ff,1
765,765,0,0,f8ffe8ff,1
766,766,0,0,e8ff0800,1
767,767,0,8,fc000800,1
768,768,0,8,fc000800,1
769,769,0,0,08001800,1
770,770,0,0,0800f8ff,1
771,771,0,0,0800f8ff,1
772,772,0,0,0800f8ff,1
773,773,0,0,28001800,1
774,774,0,0,f8ff0800,1
775,775,0,0,f8ff0800,1
776,776,0,8,fc001800,1
777,777,0,0,2800f8ff,1
778,778,0,0,f8ff0800,1
779,779,0,2,1800fcff,1
780,780,0,0,0800f8ff,1
781,781,0,2,0800fc00,1
782,782,0,2,08007c00,1
783,783,0,0,1800e8ff,1
784,784,0,0,18000800,1
785,785,0,8,fcfff8ff,1
786,786,0,8,fc000800,1
787,787,0,0,0800f8ff,1
788,788,0,0,1800f8ff,1
789,789,0,0,08002800,1
790,790,0,0,f8ffe8ff,1
791,791,0,0,f8ff0800,1
792,792,0,0,f8ffe8ff,1
793,793,0,0,e8ff1800,1
794,794,0,2,1800fcff,1
795,795,0,2,2800fc00,1
796,796,0,0,f8ff0800,1
797,797,0,2,d8ff7cff,1
798,798,0,8,fcffe8ff,1
799,799,0,8,fcfff8ff,1
800,800,0,0,f8ff1800,1
801,801,0,0,f8ff0800,1
802,802,0,2,f8fffcff,1
803,803,0,2,0800fcff,1
804,804,0,0,f8ffe8ff,1
805,805,0,2,e8fffcff,1
806,806,0,8,fcfff8ff,1
807,807,0,0,0800c8ff,1
808,808,0,0,e8fff8ff,1
809,809,0,0,08001800,1
810,810,0,2,0800fc00,1
811,811,0,8,fcfff8ff,1
812,812,0,0,e8ff0800,1
813,813,0,0,e8ff1800,1
814,814,0,0,0800f8ff,1
815,815,0,0,0800f8ff,1
816,816,0,0,f8ff2800,1
817,817,0,0,18000800,1
818,818,0,8,fcfff8ff,1
819,819,0,0,e8ffd8ff,1
820,820,0,0,08002800,1
821,821,0,0,08001800,1
822,822,0,8,fcfff8ff,1
823,823,0,0,e8ff2800,1
824,824,0,0,f8ff0800,1
825,825,0,0,f8ff0800,1
826,826,0,0,f8ff1800,1
827,827,0,0,0800e8ff,1
828,828,0,2,2800fc00,1
829,829,0,0,0800d8ff,1
830,830,0,0,0800e8ff,1
831,831,0,0,0800e8ff,1
832,832,0,0,1800f8ff,1
833,833,0,0,0800f8ff,1
834,834,0,0,f8ff2800,1
